
**** 07/07/17 14:57:44 ********* PSpice 9.2 (Mar 2000) ******** ID# 0 ********

 ** Profile: "SCHEMATIC1-a"  [ D:\A\e, sources\Electronic\Homeworks\BP_Project\BP_Project\A\part_a-schematic1-a.sim ] 


 ****     CIRCUIT DESCRIPTION


******************************************************************************




** Creating circuit file "part_a-schematic1-a.sim.cir" 
** WARNING: THIS AUTOMATICALLY GENERATED FILE MAY BE OVERWRITTEN BY SUBSEQUENT SIMULATIONS

*Libraries: 
* Local Libraries :
* From [PSPICE NETLIST] section of C:\Program Files\Orcad\PSpice\PSpice.ini file:
.lib "nom.lib" 

*Analysis directives: 
.TRAN  0 1000ns 0 
.PROBE V(*) I(*) W(*) D(*) NOISE(*) 
.INC ".\part_a-SCHEMATIC1.net" 



**** INCLUDING part_a-SCHEMATIC1.net ****
* source PART_A
V_V1         0 N00249 50Vdc
R_R2         0 N00121  1k  
R_R1         N00121 N00213  1k  
E_U3         N00213 0 VALUE {LIMIT(V(N00249,N00121)*1E6,-15V,+15V)}

**** RESUMING part_a-schematic1-a.sim.cir ****
.END

**** 07/07/17 14:57:44 ********* PSpice 9.2 (Mar 2000) ******** ID# 0 ********

 ** Profile: "SCHEMATIC1-a"  [ D:\A\e, sources\Electronic\Homeworks\BP_Project\BP_Project\A\part_a-schematic1-a.sim ] 


 ****     INITIAL TRANSIENT SOLUTION       TEMPERATURE =   27.000 DEG C


******************************************************************************



 NODE   VOLTAGE     NODE   VOLTAGE     NODE   VOLTAGE     NODE   VOLTAGE


(N00121)   -7.5000 (N00213)  -15.0000 (N00249)  -50.0000 




    VOLTAGE SOURCE CURRENTS
    NAME         CURRENT

    V_V1         0.000E+00

    TOTAL POWER DISSIPATION   0.00E+00  WATTS



          JOB CONCLUDED

          TOTAL JOB TIME             .09
